T3948 000:012.245   SEGGER J-Link V6.60c Log File
T3948 000:012.897   DLL Compiled: Dec 23 2019 16:14:31
T3948 000:012.928   Logging started @ 2023-02-19 01:59
T3948 000:012.946 JLINK_SetWarnOutHandler(...)
T3948 000:013.206 - 0.267ms
T3948 000:013.488 JLINK_OpenEx(...)
T3948 000:028.580   Firmware: J-Link V9 compiled Dec 13 2019 11:14:50
T3948 000:040.503   Hardware: V9.30
T3948 000:040.540   S/N: 59300616
T3948 000:040.560   OEM: SEGGER
T3948 000:040.579   Feature(s): RDI, FlashBP, FlashDL, JFlash, GDB
T3948 000:042.193   TELNET listener socket opened on port 19021
T3948 000:042.541   WEBSRV Starting webserver
T3948 000:042.714   WEBSRV Webserver running on local port 19080
T3948 000:042.748 - 29.269ms returns "O.K."
T3948 000:043.285 JLINK_GetEmuCaps()
T3948 000:043.291 - 0.008ms returns 0xB9FF7BBF
T3948 000:043.514 JLINK_TIF_GetAvailable(...)
T3948 000:043.670 - 0.159ms
T3948 000:043.678 JLINK_SetErrorOutHandler(...)
T3948 000:043.682 - 0.006ms
T3948 000:043.945 JLINK_ExecCommand("ProjectFile = "D:\Study_end\Õı«Á\HMI_music_test\USER\JLinkSettings.ini"", ...). 
T3948 000:060.956   Ref file found at: E:\MDK534\ARM\Segger\JLinkDevices.ref
T3948 000:068.273   XML referenced by ref file: C:\Program Files (x86)\SEGGER\JLink\JLinkDevices.xml
T3948 000:069.692   C:\Program Files (x86)\SEGGER\JLink\JLinkDevices.xml evaluated successfully.
T3948 000:215.314 - 171.384ms returns 0x00
T3948 000:221.657 JLINK_ExecCommand("Device = STM32F103C8", ...). 
T3948 000:225.494   Device "STM32F103C8" selected.
T3948 000:225.801 - 4.136ms returns 0x00
T3948 000:225.818 JLINK_ExecCommand("DisableConnectionTimeout", ...). 
T3948 000:225.827 - 0.005ms returns 0x01
T3948 000:225.832 JLINK_GetHardwareVersion()
T3948 000:225.837 - 0.006ms returns 0x16B48
T3948 000:225.842 JLINK_GetDLLVersion()  returns 66003
T3948 000:225.853 JLINK_GetFirmwareString(...)
T3948 000:225.857 - 0.006ms
T3948 000:231.338 JLINK_GetDLLVersion()  returns 66003
T3948 000:231.355 JLINK_GetCompileDateTime()
T3948 000:231.359 - 0.006ms
T3948 000:233.248 JLINK_GetFirmwareString(...)
T3948 000:233.264 - 0.018ms
T3948 000:235.231 JLINK_GetHardwareVersion()
T3948 000:235.244 - 0.015ms returns 0x16B48
T3948 000:242.224 JLINK_TIF_Select(JLINKARM_TIF_SWD)
T3948 000:242.861 - 0.645ms returns 0x00
T3948 000:243.088 JLINK_SetSpeed(20000)
T3948 000:243.153 - 0.071ms
T3948 000:243.164 JLINK_GetId()
T3948 000:246.310   Found SW-DP with ID 0x1BA01477
T3948 000:255.603   Found SW-DP with ID 0x1BA01477
T3948 000:259.305   Scanning AP map to find all available APs
T3948 000:262.811   AP[1]: Stopped AP scan as end of AP map has been reached
T3948 000:264.404   AP[0]: AHB-AP (IDR: 0x14770011)
T3948 000:266.015   Iterating through AP map to find AHB-AP to use
T3948 000:270.565   AP[0]: Core found
T3948 000:272.160   AP[0]: AHB-AP ROM base: 0xE00FF000
T3948 000:275.485   CPUID register: 0x411FC231. Implementer code: 0x41 (ARM)
T3948 000:277.053   Found Cortex-M3 r1p1, Little endian.
T3948 000:377.440    -- Max. mem block: 0x00010F88
T3948 000:377.467    -- CPU_ReadMem(4 bytes @ 0xE000EDF0)
T3948 000:377.823    -- CPU_WriteMem(4 bytes @ 0xE000EDF0)
T3948 000:377.995    -- CPU_ReadMem(4 bytes @ 0xE0002000)
T3948 000:379.959   FPUnit: 6 code (BP) slots and 2 literal slots
T3948 000:379.975    -- CPU_ReadMem(4 bytes @ 0xE000EDFC)
T3948 000:380.160    -- CPU_WriteMem(4 bytes @ 0xE000EDFC)
T3948 000:380.333    -- CPU_ReadMem(4 bytes @ 0xE0001000)
T3948 000:380.506    -- CPU_WriteMem(4 bytes @ 0xE0001000)
T3948 000:380.741    -- CPU_ReadMem(4 bytes @ 0xE000ED88)
T3948 000:380.910    -- CPU_WriteMem(4 bytes @ 0xE000ED88)
T3948 000:381.080    -- CPU_ReadMem(4 bytes @ 0xE000ED88)
T3948 000:381.246    -- CPU_WriteMem(4 bytes @ 0xE000ED88)
T3948 000:383.228   CoreSight components:
T3948 000:384.993   ROMTbl[0] @ E00FF000
T3948 000:385.017    -- CPU_ReadMem(16 bytes @ 0xE00FF000)
T3948 000:385.279    -- CPU_ReadMem(16 bytes @ 0xE000EFF0)
T3948 000:385.482    -- CPU_ReadMem(16 bytes @ 0xE000EFE0)
T3948 000:387.901   ROMTbl[0][0]: E000E000, CID: B105E00D, PID: 001BB000 SCS
T3948 000:387.954    -- CPU_ReadMem(16 bytes @ 0xE0001FF0)
T3948 000:388.170    -- CPU_ReadMem(16 bytes @ 0xE0001FE0)
T3948 000:389.924   ROMTbl[0][1]: E0001000, CID: B105E00D, PID: 001BB002 DWT
T3948 000:389.936    -- CPU_ReadMem(16 bytes @ 0xE0002FF0)
T3948 000:390.148    -- CPU_ReadMem(16 bytes @ 0xE0002FE0)
T3948 000:391.959   ROMTbl[0][2]: E0002000, CID: B105E00D, PID: 000BB003 FPB
T3948 000:391.978    -- CPU_ReadMem(16 bytes @ 0xE0000FF0)
T3948 000:392.217    -- CPU_ReadMem(16 bytes @ 0xE0000FE0)
T3948 000:394.180   ROMTbl[0][3]: E0000000, CID: B105E00D, PID: 001BB001 ITM
T3948 000:394.198    -- CPU_ReadMem(16 bytes @ 0xE00FF010)
T3948 000:394.425    -- CPU_ReadMem(16 bytes @ 0xE0040FF0)
T3948 000:394.624    -- CPU_ReadMem(16 bytes @ 0xE0040FE0)
T3948 000:396.452   ROMTbl[0][4]: E0040000, CID: B105900D, PID: 001BB923 TPIU-Lite
T3948 000:397.095 - 153.936ms   returns 0x1BA01477
T3948 000:397.108 JLINK_GetDLLVersion()  returns 66003
T3948 000:397.137 JLINK_CORE_GetFound()
T3948 000:397.146 - 0.011ms returns 0x30000FF
T3948 000:397.152 JLINK_GetDebugInfo(0x100 = JLINKARM_ROM_TABLE_ADDR_INDEX)
T3948 000:397.157   Value=0xE00FF000
T3948 000:397.163 - 0.012ms returns 0x00
T3948 000:398.937 JLINK_GetDebugInfo(0x100 = JLINKARM_ROM_TABLE_ADDR_INDEX)
T3948 000:398.954   Value=0xE00FF000
T3948 000:398.960 - 0.024ms returns 0x00
T3948 000:398.965 JLINK_GetDebugInfo(0x101 = JLINKARM_DEBUG_INFO_ETM_ADDR_INDEX)
T3948 000:398.970   Value=0x00000000
T3948 000:398.975 - 0.012ms returns 0x00
T3948 000:398.992   JLINK_ReadMemEx(0xE0041FF0, 0x0010 Bytes, ..., Flags = 0x02000004)
T3948 000:399.312    -- CPU_ReadMem(16 bytes @ 0xE0041FF0)
T3948 000:399.556   Data:  00 00 00 00 00 00 00 00 00 00 00 00 00 00 00 00
T3948 000:399.563 - 0.575ms returns 0x10
T3948 000:399.570 JLINK_GetDebugInfo(0x102 = JLINKARM_DEBUG_INFO_MTB_ADDR_INDEX)
T3948 000:399.574   Value=0x00000000
T3948 000:399.580 - 0.012ms returns 0x00
T3948 000:399.585 JLINK_GetDebugInfo(0x103 = JLINKARM_DEBUG_INFO_TPIU_ADDR_INDEX)
T3948 000:399.593   Value=0xE0040000
T3948 000:399.599 - 0.016ms returns 0x00
T3948 000:399.604 JLINK_GetDebugInfo(0x104 = JLINKARM_DEBUG_INFO_ITM_ADDR_INDEX)
T3948 000:399.608   Value=0xE0000000
T3948 000:399.614 - 0.011ms returns 0x00
T3948 000:399.618 JLINK_GetDebugInfo(0x105 = JLINKARM_DEBUG_INFO_DWT_ADDR_INDEX)
T3948 000:399.623   Value=0xE0001000
T3948 000:399.628 - 0.011ms returns 0x00
T3948 000:399.633 JLINK_GetDebugInfo(0x106 = JLINKARM_DEBUG_INFO_FPB_ADDR_INDEX)
T3948 000:399.637   Value=0xE0002000
T3948 000:399.643 - 0.011ms returns 0x00
T3948 000:399.647 JLINK_GetDebugInfo(0x107 = JLINKARM_DEBUG_INFO_NVIC_ADDR_INDEX)
T3948 000:399.652   Value=0xE000E000
T3948 000:399.657 - 0.011ms returns 0x00
T3948 000:399.662 JLINK_GetDebugInfo(0x10C = JLINKARM_DEBUG_INFO_DBG_ADDR_INDEX)
T3948 000:399.666   Value=0xE000EDF0
T3948 000:399.672 - 0.011ms returns 0x00
T3948 000:399.677 JLINK_GetDebugInfo(0x01 = Unknown)
T3948 000:399.684   Value=0x00000000
T3948 000:399.690 - 0.015ms returns 0x00
T3948 000:399.698   JLINK_ReadMemU32(0xE000ED00, 0x0001 Items, ...)
T3948 000:399.707    -- CPU_ReadMem(4 bytes @ 0xE000ED00)
T3948 000:399.875   Data:  31 C2 1F 41
T3948 000:400.159    - CPUID
T3948 000:400.167 - 0.471ms returns 1
T3948 000:400.173 JLINK_GetDebugInfo(0x10F = JLINKARM_DEBUG_INFO_HAS_CORTEX_M_SECURITY_EXT_INDEX)
T3948 000:400.182   Value=0x00000000
T3948 000:400.187 - 0.016ms returns 0x00
T3948 000:400.194 JLINK_SetResetType(JLINKARM_CM3_RESET_TYPE_NORMAL)
T3948 000:400.198 - 0.006ms returns JLINKARM_CM3_RESET_TYPE_NORMAL
T3948 000:400.203 JLINK_Reset()
T3948 000:400.223   CPU is running
T3948 000:400.230    -- CPU_WriteMem(4 bytes @ 0xE000EDF0)
T3948 000:400.410   CPU is running
T3948 000:400.418    -- CPU_WriteMem(4 bytes @ 0xE000EDFC)
T3948 000:402.308   Reset: Halt core after reset via DEMCR.VC_CORERESET.
T3948 000:404.336   Reset: Reset device via AIRCR.SYSRESETREQ.
T3948 000:404.349   CPU is running
T3948 000:404.357    -- CPU_WriteMem(4 bytes @ 0xE000ED0C)
T3948 000:456.734    -- CPU_ReadMem(4 bytes @ 0xE000EDF0)
T3948 000:456.910    -- CPU_ReadMem(4 bytes @ 0xE000EDF0)
T3948 000:457.113   CPU is running
T3948 000:457.126    -- CPU_WriteMem(4 bytes @ 0xE000EDF0)
T3948 000:457.335   CPU is running
T3948 000:457.346    -- CPU_WriteMem(4 bytes @ 0xE000EDFC)
T3948 000:463.228    -- CPU_ReadMem(4 bytes @ 0xE000EDF0)
T3948 000:465.690    -- CPU_WriteMem(4 bytes @ 0xE0002000)
T3948 000:465.868    -- CPU_ReadMem(4 bytes @ 0xE000EDFC)
T3948 000:466.040    -- CPU_ReadMem(4 bytes @ 0xE0001000)
T3948 000:466.216 - 66.016ms
T3948 000:466.228 JLINK_Halt()
T3948 000:466.233 - 0.006ms returns 0x00
T3948 000:466.262   JLINK_ReadMemU32(0xE000EDF0, 0x0001 Items, ...)
T3948 000:466.273    -- CPU_ReadMem(4 bytes @ 0xE000EDF0)
T3948 000:466.447   Data:  03 00 03 00
T3948 000:466.454    - DHCSR
T3948 000:466.460 - 0.200ms returns 1
T3948 000:466.466   JLINK_WriteU32(0xE000EDF0, 0xA05F0003)
T3948 000:466.472    - DHCSR
T3948 000:466.492    -- CPU_WriteMem(4 bytes @ 0xE000EDF0)
T3948 000:466.664 - 0.201ms returns 0
T3948 000:466.671   JLINK_WriteU32(0xE000EDFC, 0x01000000)
T3948 000:466.677    - DEMCR
T3948 000:466.686    -- CPU_WriteMem(4 bytes @ 0xE000EDFC)
T3948 000:466.849 - 0.181ms returns 0
T3948 000:473.580 JLINK_GetHWStatus(...)
T3948 000:473.716 - 0.144ms returns 0x00
T3948 000:478.498 JLINK_GetNumBPUnits(Type = 0xFFFFFF00)
T3948 000:478.513 - 0.016ms returns 0x06
T3948 000:478.518 JLINK_GetNumBPUnits(Type = 0xF0)
T3948 000:478.523 - 0.006ms returns 0x2000
T3948 000:478.527 JLINK_GetNumWPUnits()
T3948 000:478.531 - 0.006ms returns 0x04
T3948 000:483.084 JLINK_GetSpeed()
T3948 000:483.102 - 0.020ms returns 0x2EE0
T3948 000:486.062   JLINK_ReadMemU32(0xE000E004, 0x0001 Items, ...)
T3948 000:486.086    -- CPU_ReadMem(4 bytes @ 0xE000E004)
T3948 000:486.318   Data:  01 00 00 00
T3948 000:486.326 - 0.266ms returns 1
T3948 000:486.332   JLINK_ReadMemU32(0xE000E004, 0x0001 Items, ...)
T3948 000:486.341    -- CPU_ReadMem(4 bytes @ 0xE000E004)
T3948 000:486.514   Data:  01 00 00 00
T3948 000:486.521 - 0.191ms returns 1
T3948 000:486.527 JLINK_WriteMemEx(0xE0001000, 0x001C Bytes, ..., Flags = 0x02000004)
T3948 000:486.532   Data:  01 00 00 00 00 00 00 00 00 00 00 00 00 00 00 00 ...
T3948 000:486.743    -- CPU_WriteMem(28 bytes @ 0xE0001000)
T3948 000:486.981 - 0.457ms returns 0x1C
T3948 000:486.992 JLINK_Halt()
T3948 000:486.996 - 0.006ms returns 0x00
T3948 000:487.001 JLINK_IsHalted()
T3948 000:487.006 - 0.006ms returns TRUE
T3948 000:492.846 JLINK_WriteMem(0x20000000, 0x0164 Bytes, ...)
T3948 000:492.857   Data:  00 BE 0A E0 0D 78 2D 06 68 40 08 24 40 00 00 D3 ...
T3948 000:493.072    -- CPU_WriteMem(356 bytes @ 0x20000000)
T3948 000:494.264 - 1.424ms returns 0x164
T3948 000:494.293 JLINK_WriteReg(R0, 0x08000000)
T3948 000:494.301 - 0.011ms returns 0x00
T3948 000:494.307 JLINK_WriteReg(R1, 0x00B71B00)
T3948 000:494.311 - 0.006ms returns 0x00
T3948 000:494.316 JLINK_WriteReg(R2, 0x00000001)
T3948 000:494.320 - 0.006ms returns 0x00
T3948 000:494.325 JLINK_WriteReg(R3, 0x00000000)
T3948 000:494.329 - 0.006ms returns 0x00
T3948 000:494.334 JLINK_WriteReg(R4, 0x00000000)
T3948 000:494.338 - 0.006ms returns 0x00
T3948 000:494.343 JLINK_WriteReg(R5, 0x00000000)
T3948 000:494.348 - 0.006ms returns 0x00
T3948 000:494.352 JLINK_WriteReg(R6, 0x00000000)
T3948 000:494.357 - 0.006ms returns 0x00
T3948 000:494.361 JLINK_WriteReg(R7, 0x00000000)
T3948 000:494.366 - 0.006ms returns 0x00
T3948 000:494.370 JLINK_WriteReg(R8, 0x00000000)
T3948 000:494.375 - 0.006ms returns 0x00
T3948 000:494.379 JLINK_WriteReg(R9, 0x20000160)
T3948 000:494.384 - 0.006ms returns 0x00
T3948 000:494.388 JLINK_WriteReg(R10, 0x00000000)
T3948 000:494.393 - 0.006ms returns 0x00
T3948 000:494.398 JLINK_WriteReg(R11, 0x00000000)
T3948 000:494.402 - 0.006ms returns 0x00
T3948 000:494.407 JLINK_WriteReg(R12, 0x00000000)
T3948 000:494.411 - 0.006ms returns 0x00
T3948 000:494.416 JLINK_WriteReg(R13 (SP), 0x20001000)
T3948 000:494.421 - 0.007ms returns 0x00
T3948 000:494.428 JLINK_WriteReg(R14, 0x20000001)
T3948 000:494.434 - 0.007ms returns 0x00
T3948 000:494.439 JLINK_WriteReg(R15 (PC), 0x20000038)
T3948 000:494.443 - 0.006ms returns 0x00
T3948 000:494.448 JLINK_WriteReg(XPSR, 0x01000000)
T3948 000:494.452 - 0.006ms returns 0x00
T3948 000:494.457 JLINK_WriteReg(MSP, 0x20001000)
T3948 000:494.461 - 0.006ms returns 0x00
T3948 000:494.466 JLINK_WriteReg(PSP, 0x20001000)
T3948 000:494.470 - 0.006ms returns 0x00
T3948 000:494.475 JLINK_WriteReg(CFBP, 0x00000000)
T3948 000:494.479 - 0.006ms returns 0x00
T3948 000:494.485   JLINK_SetBPEx(Addr = 0x20000000, Type = 0xFFFFFFF2)
T3948 000:494.494    -- CPU_ReadMem(2 bytes @ 0x20000000)
T3948 000:494.780 - 0.302ms returns 0x00000001
T3948 000:494.791 JLINK_Go()
T3948 000:494.799    -- CPU_WriteMem(2 bytes @ 0x20000000)
T3948 000:494.980    -- CPU_ReadMem(4 bytes @ 0xE0001000)
T3948 000:495.169    -- CPU_WriteMem(4 bytes @ 0xE0002008)
T3948 000:495.180    -- CPU_WriteMem(4 bytes @ 0xE000200C)
T3948 000:495.185    -- CPU_WriteMem(4 bytes @ 0xE0002010)
T3948 000:495.192    -- CPU_WriteMem(4 bytes @ 0xE0002014)
T3948 000:495.197    -- CPU_WriteMem(4 bytes @ 0xE0002018)
T3948 000:495.203    -- CPU_WriteMem(4 bytes @ 0xE000201C)
T3948 000:496.097    -- CPU_WriteMem(4 bytes @ 0xE0001004)
T3948 000:497.615 - 2.830ms
T3948 000:497.627 JLINK_IsHalted()
T3948 000:498.889    -- CPU_ReadMem(2 bytes @ 0x20000000)
T3948 000:499.066 - 1.442ms returns TRUE
T3948 000:499.074 JLINK_ReadReg(R15 (PC))
T3948 000:499.080 - 0.008ms returns 0x20000000
T3948 000:499.086 JLINK_ClrBPEx(BPHandle = 0x00000001)
T3948 000:499.090 - 0.006ms returns 0x00
T3948 000:499.095 JLINK_ReadReg(R0)
T3948 000:499.100 - 0.006ms returns 0x00000000
T3948 000:499.584 JLINK_WriteReg(R0, 0x08000000)
T3948 000:499.594 - 0.012ms returns 0x00
T3948 000:499.599 JLINK_WriteReg(R1, 0x00B71B00)
T3948 000:499.604 - 0.006ms returns 0x00
T3948 000:499.608 JLINK_WriteReg(R2, 0x00000001)
T3948 000:499.613 - 0.006ms returns 0x00
T3948 000:499.618 JLINK_WriteReg(R3, 0x00000000)
T3948 000:499.622 - 0.006ms returns 0x00
T3948 000:499.627 JLINK_WriteReg(R4, 0x00000000)
T3948 000:499.631 - 0.006ms returns 0x00
T3948 000:499.636 JLINK_WriteReg(R5, 0x00000000)
T3948 000:499.640 - 0.006ms returns 0x00
T3948 000:499.645 JLINK_WriteReg(R6, 0x00000000)
T3948 000:499.649 - 0.006ms returns 0x00
T3948 000:499.654 JLINK_WriteReg(R7, 0x00000000)
T3948 000:499.658 - 0.006ms returns 0x00
T3948 000:499.663 JLINK_WriteReg(R8, 0x00000000)
T3948 000:499.667 - 0.006ms returns 0x00
T3948 000:499.672 JLINK_WriteReg(R9, 0x20000160)
T3948 000:499.677 - 0.006ms returns 0x00
T3948 000:499.681 JLINK_WriteReg(R10, 0x00000000)
T3948 000:499.686 - 0.006ms returns 0x00
T3948 000:499.690 JLINK_WriteReg(R11, 0x00000000)
T3948 000:499.695 - 0.006ms returns 0x00
T3948 000:499.699 JLINK_WriteReg(R12, 0x00000000)
T3948 000:499.704 - 0.006ms returns 0x00
T3948 000:499.709 JLINK_WriteReg(R13 (SP), 0x20001000)
T3948 000:499.714 - 0.006ms returns 0x00
T3948 000:499.718 JLINK_WriteReg(R14, 0x20000001)
T3948 000:499.722 - 0.006ms returns 0x00
T3948 000:499.727 JLINK_WriteReg(R15 (PC), 0x2000007C)
T3948 000:499.735 - 0.009ms returns 0x00
T3948 000:499.740 JLINK_WriteReg(XPSR, 0x01000000)
T3948 000:499.744 - 0.006ms returns 0x00
T3948 000:499.749 JLINK_WriteReg(MSP, 0x20001000)
T3948 000:499.753 - 0.006ms returns 0x00
T3948 000:499.758 JLINK_WriteReg(PSP, 0x20001000)
T3948 000:499.762 - 0.006ms returns 0x00
T3948 000:499.767 JLINK_WriteReg(CFBP, 0x00000000)
T3948 000:499.771 - 0.006ms returns 0x00
T3948 000:499.776   JLINK_SetBPEx(Addr = 0x20000000, Type = 0xFFFFFFF2)
T3948 000:499.783 - 0.009ms returns 0x00000002
T3948 000:499.788 JLINK_Go()
T3948 000:499.798    -- CPU_ReadMem(4 bytes @ 0xE0001000)
T3948 000:501.255 - 1.472ms
T3948 000:501.264 JLINK_IsHalted()
T3948 000:501.410 - 0.149ms returns FALSE
T3948 000:511.023 JLINK_IsHalted()
T3948 000:511.214 - 0.196ms returns FALSE
T3948 000:513.981 JLINK_IsHalted()
T3948 000:514.167 - 0.190ms returns FALSE
T3948 000:516.007 JLINK_IsHalted()
T3948 000:516.188 - 0.186ms returns FALSE
T3948 000:518.001 JLINK_IsHalted()
T3948 000:518.220 - 0.225ms returns FALSE
T3948 000:519.993 JLINK_IsHalted()
T3948 000:520.205 - 0.218ms returns FALSE
T3948 000:521.954 JLINK_IsHalted()
T3948 000:522.232 - 0.284ms returns FALSE
T3948 000:523.950 JLINK_IsHalted()
T3948 000:525.262    -- CPU_ReadMem(2 bytes @ 0x20000000)
T3948 000:525.441 - 1.494ms returns TRUE
T3948 000:525.449 JLINK_ReadReg(R15 (PC))
T3948 000:525.455 - 0.008ms returns 0x20000000
T3948 000:525.460 JLINK_ClrBPEx(BPHandle = 0x00000002)
T3948 000:525.465 - 0.006ms returns 0x00
T3948 000:525.471 JLINK_ReadReg(R0)
T3948 000:525.475 - 0.006ms returns 0x00000000
T3948 000:577.141 JLINK_WriteReg(R0, 0x00000001)
T3948 000:577.159 - 0.020ms returns 0x00
T3948 000:577.164 JLINK_WriteReg(R1, 0x00B71B00)
T3948 000:577.169 - 0.006ms returns 0x00
T3948 000:577.174 JLINK_WriteReg(R2, 0x00000001)
T3948 000:577.178 - 0.006ms returns 0x00
T3948 000:577.183 JLINK_WriteReg(R3, 0x00000000)
T3948 000:577.187 - 0.006ms returns 0x00
T3948 000:577.192 JLINK_WriteReg(R4, 0x00000000)
T3948 000:577.197 - 0.006ms returns 0x00
T3948 000:577.201 JLINK_WriteReg(R5, 0x00000000)
T3948 000:577.206 - 0.006ms returns 0x00
T3948 000:577.210 JLINK_WriteReg(R6, 0x00000000)
T3948 000:577.215 - 0.006ms returns 0x00
T3948 000:577.219 JLINK_WriteReg(R7, 0x00000000)
T3948 000:577.224 - 0.006ms returns 0x00
T3948 000:577.229 JLINK_WriteReg(R8, 0x00000000)
T3948 000:577.233 - 0.006ms returns 0x00
T3948 000:577.238 JLINK_WriteReg(R9, 0x20000160)
T3948 000:577.242 - 0.006ms returns 0x00
T3948 000:577.247 JLINK_WriteReg(R10, 0x00000000)
T3948 000:577.251 - 0.007ms returns 0x00
T3948 000:577.257 JLINK_WriteReg(R11, 0x00000000)
T3948 000:577.262 - 0.006ms returns 0x00
T3948 000:577.266 JLINK_WriteReg(R12, 0x00000000)
T3948 000:577.271 - 0.006ms returns 0x00
T3948 000:577.275 JLINK_WriteReg(R13 (SP), 0x20001000)
T3948 000:577.281 - 0.007ms returns 0x00
T3948 000:577.286 JLINK_WriteReg(R14, 0x20000001)
T3948 000:577.290 - 0.006ms returns 0x00
T3948 000:577.295 JLINK_WriteReg(R15 (PC), 0x2000006A)
T3948 000:577.299 - 0.006ms returns 0x00
T3948 000:577.304 JLINK_WriteReg(XPSR, 0x01000000)
T3948 000:577.309 - 0.006ms returns 0x00
T3948 000:577.314 JLINK_WriteReg(MSP, 0x20001000)
T3948 000:577.318 - 0.006ms returns 0x00
T3948 000:577.323 JLINK_WriteReg(PSP, 0x20001000)
T3948 000:577.327 - 0.006ms returns 0x00
T3948 000:577.332 JLINK_WriteReg(CFBP, 0x00000000)
T3948 000:577.336 - 0.006ms returns 0x00
T3948 000:577.342   JLINK_SetBPEx(Addr = 0x20000000, Type = 0xFFFFFFF2)
T3948 000:577.349 - 0.009ms returns 0x00000003
T3948 000:577.354 JLINK_Go()
T3948 000:577.367    -- CPU_ReadMem(4 bytes @ 0xE0001000)
T3948 000:578.993 - 1.644ms
T3948 000:579.003 JLINK_IsHalted()
T3948 000:580.314    -- CPU_ReadMem(2 bytes @ 0x20000000)
T3948 000:580.522 - 1.525ms returns TRUE
T3948 000:580.534 JLINK_ReadReg(R15 (PC))
T3948 000:580.541 - 0.009ms returns 0x20000000
T3948 000:580.546 JLINK_ClrBPEx(BPHandle = 0x00000003)
T3948 000:580.551 - 0.007ms returns 0x00
T3948 000:580.556 JLINK_ReadReg(R0)
T3948 000:580.560 - 0.006ms returns 0x00000000
T3948 000:583.892 JLINK_WriteMem(0x20000000, 0x0164 Bytes, ...)
T3948 000:583.903   Data:  00 BE 0A E0 0D 78 2D 06 68 40 08 24 40 00 00 D3 ...
T3948 000:583.919    -- CPU_WriteMem(356 bytes @ 0x20000000)
T3948 000:585.108 - 1.223ms returns 0x164
T3948 000:585.138 JLINK_WriteReg(R0, 0x08000000)
T3948 000:585.147 - 0.010ms returns 0x00
T3948 000:585.152 JLINK_WriteReg(R1, 0x00B71B00)
T3948 000:585.156 - 0.006ms returns 0x00
T3948 000:585.161 JLINK_WriteReg(R2, 0x00000002)
T3948 000:585.166 - 0.006ms returns 0x00
T3948 000:585.170 JLINK_WriteReg(R3, 0x00000000)
T3948 000:585.175 - 0.006ms returns 0x00
T3948 000:585.179 JLINK_WriteReg(R4, 0x00000000)
T3948 000:585.184 - 0.006ms returns 0x00
T3948 000:585.189 JLINK_WriteReg(R5, 0x00000000)
T3948 000:585.193 - 0.006ms returns 0x00
T3948 000:585.198 JLINK_WriteReg(R6, 0x00000000)
T3948 000:585.205 - 0.011ms returns 0x00
T3948 000:585.212 JLINK_WriteReg(R7, 0x00000000)
T3948 000:585.216 - 0.006ms returns 0x00
T3948 000:585.221 JLINK_WriteReg(R8, 0x00000000)
T3948 000:585.225 - 0.006ms returns 0x00
T3948 000:585.230 JLINK_WriteReg(R9, 0x20000160)
T3948 000:585.237 - 0.008ms returns 0x00
T3948 000:585.241 JLINK_WriteReg(R10, 0x00000000)
T3948 000:585.246 - 0.006ms returns 0x00
T3948 000:585.251 JLINK_WriteReg(R11, 0x00000000)
T3948 000:585.255 - 0.006ms returns 0x00
T3948 000:585.260 JLINK_WriteReg(R12, 0x00000000)
T3948 000:585.264 - 0.006ms returns 0x00
T3948 000:585.269 JLINK_WriteReg(R13 (SP), 0x20001000)
T3948 000:585.274 - 0.007ms returns 0x00
T3948 000:585.279 JLINK_WriteReg(R14, 0x20000001)
T3948 000:585.283 - 0.006ms returns 0x00
T3948 000:585.288 JLINK_WriteReg(R15 (PC), 0x20000038)
T3948 000:585.292 - 0.006ms returns 0x00
T3948 000:585.297 JLINK_WriteReg(XPSR, 0x01000000)
T3948 000:585.302 - 0.006ms returns 0x00
T3948 000:585.307 JLINK_WriteReg(MSP, 0x20001000)
T3948 000:585.311 - 0.006ms returns 0x00
T3948 000:585.316 JLINK_WriteReg(PSP, 0x20001000)
T3948 000:585.320 - 0.006ms returns 0x00
T3948 000:585.325 JLINK_WriteReg(CFBP, 0x00000000)
T3948 000:585.329 - 0.006ms returns 0x00
T3948 000:585.335   JLINK_SetBPEx(Addr = 0x20000000, Type = 0xFFFFFFF2)
T3948 000:585.344    -- CPU_ReadMem(2 bytes @ 0x20000000)
T3948 000:585.558 - 0.230ms returns 0x00000004
T3948 000:585.569 JLINK_Go()
T3948 000:585.577    -- CPU_WriteMem(2 bytes @ 0x20000000)
T3948 000:585.802    -- CPU_ReadMem(4 bytes @ 0xE0001000)
T3948 000:587.338 - 1.776ms
T3948 000:587.350 JLINK_IsHalted()
T3948 000:588.685    -- CPU_ReadMem(2 bytes @ 0x20000000)
T3948 000:588.853 - 1.506ms returns TRUE
T3948 000:588.861 JLINK_ReadReg(R15 (PC))
T3948 000:588.867 - 0.008ms returns 0x20000000
T3948 000:588.872 JLINK_ClrBPEx(BPHandle = 0x00000004)
T3948 000:588.876 - 0.006ms returns 0x00
T3948 000:588.882 JLINK_ReadReg(R0)
T3948 000:588.886 - 0.006ms returns 0x00000000
T3948 000:589.119 JLINK_WriteMem(0x20000164, 0x029C Bytes, ...)
T3948 000:589.127   Data:  98 07 00 20 D5 07 00 08 F5 01 00 08 F7 01 00 08 ...
T3948 000:589.140    -- CPU_WriteMem(668 bytes @ 0x20000164)
T3948 000:590.966 - 1.851ms returns 0x29C
T3948 000:590.974 JLINK_WriteMem(0x20000400, 0x0164 Bytes, ...)
T3948 000:590.979   Data:  48 60 08 46 40 68 40 F4 E8 10 48 60 08 46 00 68 ...
T3948 000:590.989    -- CPU_WriteMem(356 bytes @ 0x20000400)
T3948 000:592.116 - 1.146ms returns 0x164
T3948 000:592.126 JLINK_WriteReg(R0, 0x08000000)
T3948 000:592.132 - 0.008ms returns 0x00
T3948 000:592.137 JLINK_WriteReg(R1, 0x00000400)
T3948 000:592.141 - 0.006ms returns 0x00
T3948 000:592.146 JLINK_WriteReg(R2, 0x20000164)
T3948 000:592.151 - 0.006ms returns 0x00
T3948 000:592.155 JLINK_WriteReg(R3, 0x00000000)
T3948 000:592.160 - 0.006ms returns 0x00
T3948 000:592.164 JLINK_WriteReg(R4, 0x00000000)
T3948 000:592.169 - 0.006ms returns 0x00
T3948 000:592.174 JLINK_WriteReg(R5, 0x00000000)
T3948 000:592.178 - 0.006ms returns 0x00
T3948 000:592.183 JLINK_WriteReg(R6, 0x00000000)
T3948 000:592.187 - 0.006ms returns 0x00
T3948 000:592.192 JLINK_WriteReg(R7, 0x00000000)
T3948 000:592.196 - 0.006ms returns 0x00
T3948 000:592.201 JLINK_WriteReg(R8, 0x00000000)
T3948 000:592.205 - 0.006ms returns 0x00
T3948 000:592.210 JLINK_WriteReg(R9, 0x20000160)
T3948 000:592.216 - 0.008ms returns 0x00
T3948 000:592.221 JLINK_WriteReg(R10, 0x00000000)
T3948 000:592.226 - 0.006ms returns 0x00
T3948 000:592.230 JLINK_WriteReg(R11, 0x00000000)
T3948 000:592.235 - 0.006ms returns 0x00
T3948 000:592.239 JLINK_WriteReg(R12, 0x00000000)
T3948 000:592.244 - 0.006ms returns 0x00
T3948 000:592.249 JLINK_WriteReg(R13 (SP), 0x20001000)
T3948 000:592.253 - 0.006ms returns 0x00
T3948 000:592.258 JLINK_WriteReg(R14, 0x20000001)
T3948 000:592.262 - 0.006ms returns 0x00
T3948 000:592.267 JLINK_WriteReg(R15 (PC), 0x200000F4)
T3948 000:592.272 - 0.006ms returns 0x00
T3948 000:592.276 JLINK_WriteReg(XPSR, 0x01000000)
T3948 000:592.281 - 0.006ms returns 0x00
T3948 000:592.289 JLINK_WriteReg(MSP, 0x20001000)
T3948 000:592.296 - 0.009ms returns 0x00
T3948 000:592.301 JLINK_WriteReg(PSP, 0x20001000)
T3948 000:592.306 - 0.006ms returns 0x00
T3948 000:592.310 JLINK_WriteReg(CFBP, 0x00000000)
T3948 000:592.315 - 0.006ms returns 0x00
T3948 000:592.320   JLINK_SetBPEx(Addr = 0x20000000, Type = 0xFFFFFFF2)
T3948 000:592.327 - 0.009ms returns 0x00000005
T3948 000:592.332 JLINK_Go()
T3948 000:592.341    -- CPU_ReadMem(4 bytes @ 0xE0001000)
T3948 000:593.851 - 1.528ms
T3948 000:593.865 JLINK_IsHalted()
T3948 000:594.011 - 0.150ms returns FALSE
T3948 000:597.244 JLINK_IsHalted()
T3948 000:597.457 - 0.220ms returns FALSE
T3948 000:599.205 JLINK_IsHalted()
T3948 000:599.467 - 0.270ms returns FALSE
T3948 000:601.195 JLINK_IsHalted()
T3948 000:601.361 - 0.169ms returns FALSE
T3948 000:603.223 JLINK_IsHalted()
T3948 000:603.424 - 0.207ms returns FALSE
T3948 000:605.218 JLINK_IsHalted()
T3948 000:605.418 - 0.206ms returns FALSE
T3948 000:607.210 JLINK_IsHalted()
T3948 000:607.413 - 0.209ms returns FALSE
T3948 000:609.205 JLINK_IsHalted()
T3948 000:609.361 - 0.162ms returns FALSE
T3948 000:611.168 JLINK_IsHalted()
T3948 000:611.345 - 0.181ms returns FALSE
T3948 000:614.163 JLINK_IsHalted()
T3948 000:614.343 - 0.186ms returns FALSE
T3948 000:616.160 JLINK_IsHalted()
T3948 000:616.327 - 0.171ms returns FALSE
T3948 000:618.190 JLINK_IsHalted()
T3948 000:618.399 - 0.215ms returns FALSE
T3948 000:620.188 JLINK_IsHalted()
T3948 000:620.361 - 0.176ms returns FALSE
T3948 000:622.182 JLINK_IsHalted()
T3948 000:622.352 - 0.176ms returns FALSE
T3948 000:624.177 JLINK_IsHalted()
T3948 000:624.351 - 0.180ms returns FALSE
T3948 000:626.174 JLINK_IsHalted()
T3948 000:627.465    -- CPU_ReadMem(2 bytes @ 0x20000000)
T3948 000:627.641 - 1.471ms returns TRUE
T3948 000:627.650 JLINK_ReadReg(R15 (PC))
T3948 000:627.656 - 0.008ms returns 0x20000000
T3948 000:627.661 JLINK_ClrBPEx(BPHandle = 0x00000005)
T3948 000:627.665 - 0.006ms returns 0x00
T3948 000:627.671 JLINK_ReadReg(R0)
T3948 000:627.675 - 0.006ms returns 0x00000000
T3948 000:628.071 JLINK_WriteMem(0x20000164, 0x029C Bytes, ...)
T3948 000:628.080   Data:  00 F0 FC FF 60 1C 04 46 04 2C F6 DB 10 BD 10 B5 ...
T3948 000:628.092    -- CPU_WriteMem(668 bytes @ 0x20000164)
T3948 000:629.944 - 1.886ms returns 0x29C
T3948 000:629.963 JLINK_WriteMem(0x20000400, 0x0164 Bytes, ...)
T3948 000:629.968   Data:  49 4A 12 88 02 F0 40 02 00 2A F9 D0 C2 B2 46 4B ...
T3948 000:629.981    -- CPU_WriteMem(356 bytes @ 0x20000400)
T3948 000:631.121 - 1.165ms returns 0x164
T3948 000:631.137 JLINK_WriteReg(R0, 0x08000400)
T3948 000:631.144 - 0.009ms returns 0x00
T3948 000:631.149 JLINK_WriteReg(R1, 0x00000400)
T3948 000:631.155 - 0.007ms returns 0x00
T3948 000:631.160 JLINK_WriteReg(R2, 0x20000164)
T3948 000:631.164 - 0.006ms returns 0x00
T3948 000:631.169 JLINK_WriteReg(R3, 0x00000000)
T3948 000:631.173 - 0.006ms returns 0x00
T3948 000:631.178 JLINK_WriteReg(R4, 0x00000000)
T3948 000:631.183 - 0.006ms returns 0x00
T3948 000:631.188 JLINK_WriteReg(R5, 0x00000000)
T3948 000:631.192 - 0.006ms returns 0x00
T3948 000:631.197 JLINK_WriteReg(R6, 0x00000000)
T3948 000:631.201 - 0.006ms returns 0x00
T3948 000:631.206 JLINK_WriteReg(R7, 0x00000000)
T3948 000:631.210 - 0.006ms returns 0x00
T3948 000:631.215 JLINK_WriteReg(R8, 0x00000000)
T3948 000:631.219 - 0.006ms returns 0x00
T3948 000:631.224 JLINK_WriteReg(R9, 0x20000160)
T3948 000:631.229 - 0.006ms returns 0x00
T3948 000:631.233 JLINK_WriteReg(R10, 0x00000000)
T3948 000:631.238 - 0.006ms returns 0x00
T3948 000:631.243 JLINK_WriteReg(R11, 0x00000000)
T3948 000:631.247 - 0.006ms returns 0x00
T3948 000:631.252 JLINK_WriteReg(R12, 0x00000000)
T3948 000:631.256 - 0.006ms returns 0x00
T3948 000:631.261 JLINK_WriteReg(R13 (SP), 0x20001000)
T3948 000:631.266 - 0.007ms returns 0x00
T3948 000:631.271 JLINK_WriteReg(R14, 0x20000001)
T3948 000:631.275 - 0.006ms returns 0x00
T3948 000:631.280 JLINK_WriteReg(R15 (PC), 0x200000F4)
T3948 000:631.285 - 0.009ms returns 0x00
T3948 000:631.293 JLINK_WriteReg(XPSR, 0x01000000)
T3948 000:631.298 - 0.006ms returns 0x00
T3948 000:631.303 JLINK_WriteReg(MSP, 0x20001000)
T3948 000:631.307 - 0.006ms returns 0x00
T3948 000:631.312 JLINK_WriteReg(PSP, 0x20001000)
T3948 000:631.316 - 0.006ms returns 0x00
T3948 000:631.321 JLINK_WriteReg(CFBP, 0x00000000)
T3948 000:631.325 - 0.006ms returns 0x00
T3948 000:631.331   JLINK_SetBPEx(Addr = 0x20000000, Type = 0xFFFFFFF2)
T3948 000:631.338 - 0.009ms returns 0x00000006
T3948 000:631.343 JLINK_Go()
T3948 000:631.354    -- CPU_ReadMem(4 bytes @ 0xE0001000)
T3948 000:632.840 - 1.503ms
T3948 000:632.850 JLINK_IsHalted()
T3948 000:633.012 - 0.165ms returns FALSE
T3948 000:634.149 JLINK_IsHalted()
T3948 000:634.311 - 0.165ms returns FALSE
T3948 000:636.145 JLINK_IsHalted()
T3948 000:636.314 - 0.173ms returns FALSE
T3948 000:638.137 JLINK_IsHalted()
T3948 000:638.306 - 0.172ms returns FALSE
T3948 000:640.134 JLINK_IsHalted()
T3948 000:640.306 - 0.178ms returns FALSE
T3948 000:642.137 JLINK_IsHalted()
T3948 000:642.322 - 0.189ms returns FALSE
T3948 000:644.158 JLINK_IsHalted()
T3948 000:644.367 - 0.214ms returns FALSE
T3948 000:646.118 JLINK_IsHalted()
T3948 000:646.286 - 0.175ms returns FALSE
T3948 000:648.111 JLINK_IsHalted()
T3948 000:648.284 - 0.176ms returns FALSE
T3948 000:650.107 JLINK_IsHalted()
T3948 000:650.260 - 0.160ms returns FALSE
T3948 000:652.100 JLINK_IsHalted()
T3948 000:652.273 - 0.177ms returns FALSE
T3948 000:654.096 JLINK_IsHalted()
T3948 000:654.261 - 0.169ms returns FALSE
T3948 000:656.090 JLINK_IsHalted()
T3948 000:656.291 - 0.207ms returns FALSE
T3948 000:658.122 JLINK_IsHalted()
T3948 000:658.288 - 0.171ms returns FALSE
T3948 000:660.084 JLINK_IsHalted()
T3948 000:660.293 - 0.216ms returns FALSE
T3948 000:662.115 JLINK_IsHalted()
T3948 000:662.319 - 0.210ms returns FALSE
T3948 000:664.079 JLINK_IsHalted()
T3948 000:665.359    -- CPU_ReadMem(2 bytes @ 0x20000000)
T3948 000:665.534 - 1.459ms returns TRUE
T3948 000:665.542 JLINK_ReadReg(R15 (PC))
T3948 000:665.549 - 0.008ms returns 0x20000000
T3948 000:665.554 JLINK_ClrBPEx(BPHandle = 0x00000006)
T3948 000:665.558 - 0.006ms returns 0x00
T3948 000:665.564 JLINK_ReadReg(R0)
T3948 000:665.568 - 0.006ms returns 0x00000000
T3948 000:665.938 JLINK_WriteMem(0x20000164, 0x029C Bytes, ...)
T3948 000:665.946   Data:  31 01 00 08 98 01 00 20 98 07 00 20 98 03 00 20 ...
T3948 000:665.958    -- CPU_WriteMem(668 bytes @ 0x20000164)
T3948 000:667.891 - 1.959ms returns 0x29C
T3948 000:667.901 JLINK_WriteMem(0x20000400, 0x0164 Bytes, ...)
T3948 000:667.907   Data:  C2 F8 14 80 91 F8 03 C0 BC F1 48 0F 07 D1 00 F1 ...
T3948 000:667.918    -- CPU_WriteMem(356 bytes @ 0x20000400)
T3948 000:669.077 - 1.183ms returns 0x164
T3948 000:669.092 JLINK_WriteReg(R0, 0x08000800)
T3948 000:669.100 - 0.010ms returns 0x00
T3948 000:669.105 JLINK_WriteReg(R1, 0x00000400)
T3948 000:669.110 - 0.006ms returns 0x00
T3948 000:669.115 JLINK_WriteReg(R2, 0x20000164)
T3948 000:669.119 - 0.006ms returns 0x00
T3948 000:669.124 JLINK_WriteReg(R3, 0x00000000)
T3948 000:669.128 - 0.006ms returns 0x00
T3948 000:669.133 JLINK_WriteReg(R4, 0x00000000)
T3948 000:669.137 - 0.006ms returns 0x00
T3948 000:669.142 JLINK_WriteReg(R5, 0x00000000)
T3948 000:669.146 - 0.006ms returns 0x00
T3948 000:669.151 JLINK_WriteReg(R6, 0x00000000)
T3948 000:669.155 - 0.006ms returns 0x00
T3948 000:669.160 JLINK_WriteReg(R7, 0x00000000)
T3948 000:669.165 - 0.006ms returns 0x00
T3948 000:669.170 JLINK_WriteReg(R8, 0x00000000)
T3948 000:669.174 - 0.006ms returns 0x00
T3948 000:669.179 JLINK_WriteReg(R9, 0x20000160)
T3948 000:669.183 - 0.006ms returns 0x00
T3948 000:669.188 JLINK_WriteReg(R10, 0x00000000)
T3948 000:669.192 - 0.006ms returns 0x00
T3948 000:669.197 JLINK_WriteReg(R11, 0x00000000)
T3948 000:669.201 - 0.006ms returns 0x00
T3948 000:669.206 JLINK_WriteReg(R12, 0x00000000)
T3948 000:669.211 - 0.006ms returns 0x00
T3948 000:669.215 JLINK_WriteReg(R13 (SP), 0x20001000)
T3948 000:669.220 - 0.006ms returns 0x00
T3948 000:669.260 JLINK_WriteReg(R14, 0x20000001)
T3948 000:669.267 - 0.009ms returns 0x00
T3948 000:669.272 JLINK_WriteReg(R15 (PC), 0x200000F4)
T3948 000:669.277 - 0.006ms returns 0x00
T3948 000:669.282 JLINK_WriteReg(XPSR, 0x01000000)
T3948 000:669.286 - 0.006ms returns 0x00
T3948 000:669.291 JLINK_WriteReg(MSP, 0x20001000)
T3948 000:669.295 - 0.006ms returns 0x00
T3948 000:669.300 JLINK_WriteReg(PSP, 0x20001000)
T3948 000:669.306 - 0.007ms returns 0x00
T3948 000:669.310 JLINK_WriteReg(CFBP, 0x00000000)
T3948 000:669.315 - 0.006ms returns 0x00
T3948 000:669.320   JLINK_SetBPEx(Addr = 0x20000000, Type = 0xFFFFFFF2)
T3948 000:669.327 - 0.009ms returns 0x00000007
T3948 000:669.332 JLINK_Go()
T3948 000:669.342    -- CPU_ReadMem(4 bytes @ 0xE0001000)
T3948 000:671.028 - 1.702ms
T3948 000:671.039 JLINK_IsHalted()
T3948 000:671.244 - 0.211ms returns FALSE
T3948 000:673.298 JLINK_IsHalted()
T3948 000:674.006 - 0.714ms returns FALSE
T3948 000:675.332 JLINK_IsHalted()
T3948 000:675.650 - 0.325ms returns FALSE
T3948 000:677.284 JLINK_IsHalted()
T3948 000:677.463 - 0.182ms returns FALSE
T3948 000:679.280 JLINK_IsHalted()
T3948 000:679.451 - 0.174ms returns FALSE
T3948 000:681.445 JLINK_IsHalted()
T3948 000:681.613 - 0.172ms returns FALSE
T3948 000:683.441 JLINK_IsHalted()
T3948 000:683.614 - 0.177ms returns FALSE
T3948 000:685.433 JLINK_IsHalted()
T3948 000:685.613 - 0.184ms returns FALSE
T3948 000:687.429 JLINK_IsHalted()
T3948 000:687.613 - 0.187ms returns FALSE
T3948 000:689.428 JLINK_IsHalted()
T3948 000:689.622 - 0.201ms returns FALSE
T3948 000:692.421 JLINK_IsHalted()
T3948 000:692.616 - 0.199ms returns FALSE
T3948 000:694.410 JLINK_IsHalted()
T3948 000:694.613 - 0.207ms returns FALSE
T3948 000:696.407 JLINK_IsHalted()
T3948 000:696.614 - 0.213ms returns FALSE
T3948 000:698.399 JLINK_IsHalted()
T3948 000:698.612 - 0.217ms returns FALSE
T3948 000:700.394 JLINK_IsHalted()
T3948 000:700.613 - 0.223ms returns FALSE
T3948 000:702.422 JLINK_IsHalted()
T3948 000:703.768    -- CPU_ReadMem(2 bytes @ 0x20000000)
T3948 000:703.946 - 1.528ms returns TRUE
T3948 000:703.956 JLINK_ReadReg(R15 (PC))
T3948 000:703.963 - 0.009ms returns 0x20000000
T3948 000:703.968 JLINK_ClrBPEx(BPHandle = 0x00000007)
T3948 000:703.973 - 0.007ms returns 0x00
T3948 000:703.978 JLINK_ReadReg(R0)
T3948 000:703.983 - 0.006ms returns 0x00000000
T3948 000:704.351 JLINK_WriteMem(0x20000164, 0x029C Bytes, ...)
T3948 000:704.360   Data:  23 46 8C 10 53 F8 24 30 8C 07 24 0F 00 FA 04 F4 ...
T3948 000:704.371    -- CPU_WriteMem(668 bytes @ 0x20000164)
T3948 000:706.266 - 1.918ms returns 0x29C
T3948 000:706.274 JLINK_WriteMem(0x20000400, 0x0164 Bytes, ...)
T3948 000:706.279   Data:  05 F4 00 35 1D B1 50 4D 55 43 05 60 02 E0 4D 4D ...
T3948 000:706.287    -- CPU_WriteMem(356 bytes @ 0x20000400)
T3948 000:707.413 - 1.145ms returns 0x164
T3948 000:707.426 JLINK_WriteReg(R0, 0x08000C00)
T3948 000:707.433 - 0.009ms returns 0x00
T3948 000:707.438 JLINK_WriteReg(R1, 0x00000400)
T3948 000:707.442 - 0.006ms returns 0x00
T3948 000:707.447 JLINK_WriteReg(R2, 0x20000164)
T3948 000:707.452 - 0.006ms returns 0x00
T3948 000:707.456 JLINK_WriteReg(R3, 0x00000000)
T3948 000:707.461 - 0.006ms returns 0x00
T3948 000:707.465 JLINK_WriteReg(R4, 0x00000000)
T3948 000:707.470 - 0.006ms returns 0x00
T3948 000:707.474 JLINK_WriteReg(R5, 0x00000000)
T3948 000:707.479 - 0.006ms returns 0x00
T3948 000:707.484 JLINK_WriteReg(R6, 0x00000000)
T3948 000:707.488 - 0.006ms returns 0x00
T3948 000:707.493 JLINK_WriteReg(R7, 0x00000000)
T3948 000:707.497 - 0.006ms returns 0x00
T3948 000:707.502 JLINK_WriteReg(R8, 0x00000000)
T3948 000:707.506 - 0.006ms returns 0x00
T3948 000:707.511 JLINK_WriteReg(R9, 0x20000160)
T3948 000:707.515 - 0.006ms returns 0x00
T3948 000:707.520 JLINK_WriteReg(R10, 0x00000000)
T3948 000:707.524 - 0.006ms returns 0x00
T3948 000:707.529 JLINK_WriteReg(R11, 0x00000000)
T3948 000:707.534 - 0.006ms returns 0x00
T3948 000:707.538 JLINK_WriteReg(R12, 0x00000000)
T3948 000:707.543 - 0.006ms returns 0x00
T3948 000:707.550 JLINK_WriteReg(R13 (SP), 0x20001000)
T3948 000:707.557 - 0.008ms returns 0x00
T3948 000:707.561 JLINK_WriteReg(R14, 0x20000001)
T3948 000:707.566 - 0.006ms returns 0x00
T3948 000:707.570 JLINK_WriteReg(R15 (PC), 0x200000F4)
T3948 000:707.575 - 0.006ms returns 0x00
T3948 000:707.580 JLINK_WriteReg(XPSR, 0x01000000)
T3948 000:707.584 - 0.006ms returns 0x00
T3948 000:707.589 JLINK_WriteReg(MSP, 0x20001000)
T3948 000:707.593 - 0.006ms returns 0x00
T3948 000:707.598 JLINK_WriteReg(PSP, 0x20001000)
T3948 000:707.602 - 0.006ms returns 0x00
T3948 000:707.607 JLINK_WriteReg(CFBP, 0x00000000)
T3948 000:707.611 - 0.006ms returns 0x00
T3948 000:707.616   JLINK_SetBPEx(Addr = 0x20000000, Type = 0xFFFFFFF2)
T3948 000:707.623 - 0.009ms returns 0x00000008
T3948 000:707.628 JLINK_Go()
T3948 000:707.638    -- CPU_ReadMem(4 bytes @ 0xE0001000)
T3948 000:709.151 - 1.526ms
T3948 000:709.159 JLINK_IsHalted()
T3948 000:709.321 - 0.165ms returns FALSE
T3948 000:710.620 JLINK_IsHalted()
T3948 000:710.787 - 0.172ms returns FALSE
T3948 000:712.651 JLINK_IsHalted()
T3948 000:712.894 - 0.249ms returns FALSE
T3948 000:715.607 JLINK_IsHalted()
T3948 000:715.789 - 0.185ms returns FALSE
T3948 000:717.600 JLINK_IsHalted()
T3948 000:717.862 - 0.266ms returns FALSE
T3948 000:719.597 JLINK_IsHalted()
T3948 000:719.762 - 0.169ms returns FALSE
T3948 000:722.590 JLINK_IsHalted()
T3948 000:722.773 - 0.190ms returns FALSE
T3948 000:724.581 JLINK_IsHalted()
T3948 000:724.736 - 0.158ms returns FALSE
T3948 000:726.579 JLINK_IsHalted()
T3948 000:726.749 - 0.173ms returns FALSE
T3948 000:728.573 JLINK_IsHalted()
T3948 000:728.736 - 0.167ms returns FALSE
T3948 000:730.617 JLINK_IsHalted()
T3948 000:730.783 - 0.173ms returns FALSE
T3948 000:732.596 JLINK_IsHalted()
T3948 000:732.795 - 0.206ms returns FALSE
T3948 000:734.588 JLINK_IsHalted()
T3948 000:734.827 - 0.245ms returns FALSE
T3948 000:736.604 JLINK_IsHalted()
T3948 000:736.793 - 0.195ms returns FALSE
T3948 000:738.585 JLINK_IsHalted()
T3948 000:738.788 - 0.209ms returns FALSE
T3948 000:740.587 JLINK_IsHalted()
T3948 000:741.944    -- CPU_ReadMem(2 bytes @ 0x20000000)
T3948 000:742.147 - 1.566ms returns TRUE
T3948 000:742.158 JLINK_ReadReg(R15 (PC))
T3948 000:742.166 - 0.010ms returns 0x20000000
T3948 000:742.171 JLINK_ClrBPEx(BPHandle = 0x00000008)
T3948 000:742.177 - 0.007ms returns 0x00
T3948 000:742.182 JLINK_ReadReg(R0)
T3948 000:742.186 - 0.006ms returns 0x00000000
T3948 000:742.555 JLINK_WriteMem(0x20000164, 0x029C Bytes, ...)
T3948 000:742.564   Data:  AD FF 00 21 4F F4 80 40 FF F7 A8 FF 32 E0 F6 48 ...
T3948 000:742.577    -- CPU_WriteMem(668 bytes @ 0x20000164)
T3948 000:744.469 - 1.920ms returns 0x29C
T3948 000:744.480 JLINK_WriteMem(0x20000400, 0x0164 Bytes, ...)
T3948 000:744.486   Data:  02 8B 0A 43 02 83 70 47 21 B1 82 8A 42 F0 20 02 ...
T3948 000:744.498    -- CPU_WriteMem(356 bytes @ 0x20000400)
T3948 000:745.724 - 1.250ms returns 0x164
T3948 000:745.738 JLINK_WriteReg(R0, 0x08001000)
T3948 000:745.745 - 0.009ms returns 0x00
T3948 000:745.751 JLINK_WriteReg(R1, 0x00000400)
T3948 000:745.755 - 0.006ms returns 0x00
T3948 000:745.760 JLINK_WriteReg(R2, 0x20000164)
T3948 000:745.764 - 0.006ms returns 0x00
T3948 000:745.769 JLINK_WriteReg(R3, 0x00000000)
T3948 000:745.774 - 0.006ms returns 0x00
T3948 000:745.778 JLINK_WriteReg(R4, 0x00000000)
T3948 000:745.783 - 0.006ms returns 0x00
T3948 000:745.788 JLINK_WriteReg(R5, 0x00000000)
T3948 000:745.792 - 0.006ms returns 0x00
T3948 000:745.797 JLINK_WriteReg(R6, 0x00000000)
T3948 000:745.801 - 0.006ms returns 0x00
T3948 000:745.806 JLINK_WriteReg(R7, 0x00000000)
T3948 000:745.810 - 0.006ms returns 0x00
T3948 000:745.815 JLINK_WriteReg(R8, 0x00000000)
T3948 000:745.819 - 0.006ms returns 0x00
T3948 000:745.824 JLINK_WriteReg(R9, 0x20000160)
T3948 000:745.828 - 0.006ms returns 0x00
T3948 000:745.833 JLINK_WriteReg(R10, 0x00000000)
T3948 000:745.838 - 0.006ms returns 0x00
T3948 000:745.842 JLINK_WriteReg(R11, 0x00000000)
T3948 000:745.847 - 0.009ms returns 0x00
T3948 000:745.856 JLINK_WriteReg(R12, 0x00000000)
T3948 000:745.860 - 0.006ms returns 0x00
T3948 000:745.865 JLINK_WriteReg(R13 (SP), 0x20001000)
T3948 000:745.870 - 0.007ms returns 0x00
T3948 000:745.875 JLINK_WriteReg(R14, 0x20000001)
T3948 000:745.879 - 0.006ms returns 0x00
T3948 000:745.884 JLINK_WriteReg(R15 (PC), 0x200000F4)
T3948 000:745.888 - 0.006ms returns 0x00
T3948 000:745.893 JLINK_WriteReg(XPSR, 0x01000000)
T3948 000:745.898 - 0.006ms returns 0x00
T3948 000:745.902 JLINK_WriteReg(MSP, 0x20001000)
T3948 000:745.907 - 0.006ms returns 0x00
T3948 000:745.911 JLINK_WriteReg(PSP, 0x20001000)
T3948 000:745.916 - 0.006ms returns 0x00
T3948 000:745.920 JLINK_WriteReg(CFBP, 0x00000000)
T3948 000:745.925 - 0.006ms returns 0x00
T3948 000:745.930   JLINK_SetBPEx(Addr = 0x20000000, Type = 0xFFFFFFF2)
T3948 000:745.937 - 0.009ms returns 0x00000009
T3948 000:745.942 JLINK_Go()
T3948 000:745.952    -- CPU_ReadMem(4 bytes @ 0xE0001000)
T3948 000:747.505 - 1.569ms
T3948 000:747.518 JLINK_IsHalted()
T3948 000:747.764 - 0.253ms returns FALSE
T3948 000:750.132 JLINK_IsHalted()
T3948 000:750.313 - 0.187ms returns FALSE
T3948 000:752.129 JLINK_IsHalted()
T3948 000:752.315 - 0.191ms returns FALSE
T3948 000:754.122 JLINK_IsHalted()
T3948 000:754.302 - 0.184ms returns FALSE
T3948 000:756.115 JLINK_IsHalted()
T3948 000:756.286 - 0.174ms returns FALSE
T3948 000:758.144 JLINK_IsHalted()
T3948 000:758.395 - 0.257ms returns FALSE
T3948 000:760.107 JLINK_IsHalted()
T3948 000:760.286 - 0.183ms returns FALSE
T3948 000:762.103 JLINK_IsHalted()
T3948 000:762.361 - 0.263ms returns FALSE
T3948 000:764.132 JLINK_IsHalted()
T3948 000:764.337 - 0.211ms returns FALSE
T3948 000:766.124 JLINK_IsHalted()
T3948 000:766.338 - 0.221ms returns FALSE
T3948 000:768.235 JLINK_IsHalted()
T3948 000:768.446 - 0.216ms returns FALSE
T3948 000:770.427 JLINK_IsHalted()
T3948 000:770.645 - 0.224ms returns FALSE
T3948 000:772.391 JLINK_IsHalted()
T3948 000:772.613 - 0.226ms returns FALSE
T3948 000:774.384 JLINK_IsHalted()
T3948 000:774.614 - 0.234ms returns FALSE
T3948 000:776.548 JLINK_IsHalted()
T3948 000:776.730 - 0.185ms returns FALSE
T3948 000:778.572 JLINK_IsHalted()
T3948 000:779.919    -- CPU_ReadMem(2 bytes @ 0x20000000)
T3948 000:780.129 - 1.563ms returns TRUE
T3948 000:780.140 JLINK_ReadReg(R15 (PC))
T3948 000:780.148 - 0.009ms returns 0x20000000
T3948 000:780.153 JLINK_ClrBPEx(BPHandle = 0x00000009)
T3948 000:780.158 - 0.006ms returns 0x00
T3948 000:780.163 JLINK_ReadReg(R0)
T3948 000:780.168 - 0.006ms returns 0x00000000
T3948 000:780.692 JLINK_WriteMem(0x20000164, 0x029C Bytes, ...)
T3948 000:780.701   Data:  10 B5 03 AA 02 98 00 F0 7D F8 10 BC 5D F8 14 FB ...
T3948 000:780.712    -- CPU_WriteMem(668 bytes @ 0x20000164)
T3948 000:782.654 - 1.970ms returns 0x29C
T3948 000:782.667 JLINK_WriteMem(0x20000400, 0x0164 Bytes, ...)
T3948 000:782.673   Data:  FF FF FF FF FF FF FF FF FF FF FF FF FF FF FF FF ...
T3948 000:782.686    -- CPU_WriteMem(356 bytes @ 0x20000400)
T3948 000:783.897 - 1.236ms returns 0x164
T3948 000:783.911 JLINK_WriteReg(R0, 0x08001400)
T3948 000:783.918 - 0.009ms returns 0x00
T3948 000:783.923 JLINK_WriteReg(R1, 0x00000250)
T3948 000:783.928 - 0.006ms returns 0x00
T3948 000:783.932 JLINK_WriteReg(R2, 0x20000164)
T3948 000:783.937 - 0.006ms returns 0x00
T3948 000:783.941 JLINK_WriteReg(R3, 0x00000000)
T3948 000:783.946 - 0.006ms returns 0x00
T3948 000:783.951 JLINK_WriteReg(R4, 0x00000000)
T3948 000:783.955 - 0.006ms returns 0x00
T3948 000:783.960 JLINK_WriteReg(R5, 0x00000000)
T3948 000:783.964 - 0.006ms returns 0x00
T3948 000:783.969 JLINK_WriteReg(R6, 0x00000000)
T3948 000:783.973 - 0.006ms returns 0x00
T3948 000:783.978 JLINK_WriteReg(R7, 0x00000000)
T3948 000:783.982 - 0.006ms returns 0x00
T3948 000:783.987 JLINK_WriteReg(R8, 0x00000000)
T3948 000:783.991 - 0.006ms returns 0x00
T3948 000:783.996 JLINK_WriteReg(R9, 0x20000160)
T3948 000:784.000 - 0.006ms returns 0x00
T3948 000:784.005 JLINK_WriteReg(R10, 0x00000000)
T3948 000:784.009 - 0.009ms returns 0x00
T3948 000:784.019 JLINK_WriteReg(R11, 0x00000000)
T3948 000:784.023 - 0.006ms returns 0x00
T3948 000:784.028 JLINK_WriteReg(R12, 0x00000000)
T3948 000:784.032 - 0.006ms returns 0x00
T3948 000:784.037 JLINK_WriteReg(R13 (SP), 0x20001000)
T3948 000:784.042 - 0.006ms returns 0x00
T3948 000:784.047 JLINK_WriteReg(R14, 0x20000001)
T3948 000:784.051 - 0.006ms returns 0x00
T3948 000:784.056 JLINK_WriteReg(R15 (PC), 0x200000F4)
T3948 000:784.060 - 0.006ms returns 0x00
T3948 000:784.065 JLINK_WriteReg(XPSR, 0x01000000)
T3948 000:784.069 - 0.006ms returns 0x00
T3948 000:784.074 JLINK_WriteReg(MSP, 0x20001000)
T3948 000:784.078 - 0.006ms returns 0x00
T3948 000:784.083 JLINK_WriteReg(PSP, 0x20001000)
T3948 000:784.087 - 0.006ms returns 0x00
T3948 000:784.092 JLINK_WriteReg(CFBP, 0x00000000)
T3948 000:784.096 - 0.006ms returns 0x00
T3948 000:784.102   JLINK_SetBPEx(Addr = 0x20000000, Type = 0xFFFFFFF2)
T3948 000:784.109 - 0.009ms returns 0x0000000A
T3948 000:784.113 JLINK_Go()
T3948 000:784.123    -- CPU_ReadMem(4 bytes @ 0xE0001000)
T3948 000:785.824 - 1.716ms
T3948 000:785.835 JLINK_IsHalted()
T3948 000:786.111 - 0.279ms returns FALSE
T3948 000:787.517 JLINK_IsHalted()
T3948 000:787.730 - 0.216ms returns FALSE
T3948 000:789.512 JLINK_IsHalted()
T3948 000:789.729 - 0.221ms returns FALSE
T3948 000:791.512 JLINK_IsHalted()
T3948 000:791.731 - 0.225ms returns FALSE
T3948 000:793.504 JLINK_IsHalted()
T3948 000:793.732 - 0.232ms returns FALSE
T3948 000:795.534 JLINK_IsHalted()
T3948 000:795.765 - 0.237ms returns FALSE
T3948 000:797.528 JLINK_IsHalted()
T3948 000:797.733 - 0.212ms returns FALSE
T3948 000:799.556 JLINK_IsHalted()
T3948 000:799.762 - 0.212ms returns FALSE
T3948 000:801.513 JLINK_IsHalted()
T3948 000:801.763 - 0.257ms returns FALSE
T3948 000:803.507 JLINK_IsHalted()
T3948 000:804.920    -- CPU_ReadMem(2 bytes @ 0x20000000)
T3948 000:805.129 - 1.628ms returns TRUE
T3948 000:805.140 JLINK_ReadReg(R15 (PC))
T3948 000:805.148 - 0.009ms returns 0x20000000
T3948 000:805.153 JLINK_ClrBPEx(BPHandle = 0x0000000A)
T3948 000:805.158 - 0.007ms returns 0x00
T3948 000:805.163 JLINK_ReadReg(R0)
T3948 000:805.168 - 0.006ms returns 0x00000000
T3948 000:805.175 JLINK_WriteReg(R0, 0x00000002)
T3948 000:805.180 - 0.007ms returns 0x00
T3948 000:805.185 JLINK_WriteReg(R1, 0x00000250)
T3948 000:805.189 - 0.006ms returns 0x00
T3948 000:805.194 JLINK_WriteReg(R2, 0x20000164)
T3948 000:805.198 - 0.006ms returns 0x00
T3948 000:805.203 JLINK_WriteReg(R3, 0x00000000)
T3948 000:805.207 - 0.006ms returns 0x00
T3948 000:805.212 JLINK_WriteReg(R4, 0x00000000)
T3948 000:805.216 - 0.006ms returns 0x00
T3948 000:805.221 JLINK_WriteReg(R5, 0x00000000)
T3948 000:805.225 - 0.006ms returns 0x00
T3948 000:805.230 JLINK_WriteReg(R6, 0x00000000)
T3948 000:805.235 - 0.006ms returns 0x00
T3948 000:805.240 JLINK_WriteReg(R7, 0x00000000)
T3948 000:805.244 - 0.006ms returns 0x00
T3948 000:805.249 JLINK_WriteReg(R8, 0x00000000)
T3948 000:805.253 - 0.006ms returns 0x00
T3948 000:805.258 JLINK_WriteReg(R9, 0x20000160)
T3948 000:805.262 - 0.006ms returns 0x00
T3948 000:805.267 JLINK_WriteReg(R10, 0x00000000)
T3948 000:805.272 - 0.006ms returns 0x00
T3948 000:805.276 JLINK_WriteReg(R11, 0x00000000)
T3948 000:805.281 - 0.006ms returns 0x00
T3948 000:805.285 JLINK_WriteReg(R12, 0x00000000)
T3948 000:805.290 - 0.006ms returns 0x00
T3948 000:805.295 JLINK_WriteReg(R13 (SP), 0x20001000)
T3948 000:805.299 - 0.006ms returns 0x00
T3948 000:805.304 JLINK_WriteReg(R14, 0x20000001)
T3948 000:805.308 - 0.006ms returns 0x00
T3948 000:805.313 JLINK_WriteReg(R15 (PC), 0x2000006A)
T3948 000:805.318 - 0.006ms returns 0x00
T3948 000:805.322 JLINK_WriteReg(XPSR, 0x01000000)
T3948 000:805.327 - 0.006ms returns 0x00
T3948 000:805.332 JLINK_WriteReg(MSP, 0x20001000)
T3948 000:805.336 - 0.006ms returns 0x00
T3948 000:805.341 JLINK_WriteReg(PSP, 0x20001000)
T3948 000:805.345 - 0.006ms returns 0x00
T3948 000:805.350 JLINK_WriteReg(CFBP, 0x00000000)
T3948 000:805.354 - 0.006ms returns 0x00
T3948 000:805.362   JLINK_SetBPEx(Addr = 0x20000000, Type = 0xFFFFFFF2)
T3948 000:805.371 - 0.010ms returns 0x0000000B
T3948 000:805.376 JLINK_Go()
T3948 000:805.385    -- CPU_ReadMem(4 bytes @ 0xE0001000)
T3948 000:806.937 - 1.567ms
T3948 000:806.948 JLINK_IsHalted()
T3948 000:808.233    -- CPU_ReadMem(2 bytes @ 0x20000000)
T3948 000:808.400 - 1.456ms returns TRUE
T3948 000:808.408 JLINK_ReadReg(R15 (PC))
T3948 000:808.414 - 0.007ms returns 0x20000000
T3948 000:808.419 JLINK_ClrBPEx(BPHandle = 0x0000000B)
T3948 000:808.423 - 0.006ms returns 0x00
T3948 000:808.428 JLINK_ReadReg(R0)
T3948 000:808.433 - 0.006ms returns 0x00000000
T3948 000:864.350 JLINK_WriteMem(0x20000000, 0x0164 Bytes, ...)
T3948 000:864.365   Data:  00 BE 0A E0 0D 78 2D 06 68 40 08 24 40 00 00 D3 ...
T3948 000:864.382    -- CPU_WriteMem(356 bytes @ 0x20000000)
T3948 000:865.651 - 1.309ms returns 0x164
T3948 000:865.683 JLINK_WriteReg(R0, 0x08000000)
T3948 000:865.692 - 0.011ms returns 0x00
T3948 000:865.697 JLINK_WriteReg(R1, 0x00B71B00)
T3948 000:865.702 - 0.006ms returns 0x00
T3948 000:865.706 JLINK_WriteReg(R2, 0x00000003)
T3948 000:865.711 - 0.006ms returns 0x00
T3948 000:865.716 JLINK_WriteReg(R3, 0x00000000)
T3948 000:865.720 - 0.006ms returns 0x00
T3948 000:865.725 JLINK_WriteReg(R4, 0x00000000)
T3948 000:865.729 - 0.006ms returns 0x00
T3948 000:865.734 JLINK_WriteReg(R5, 0x00000000)
T3948 000:865.738 - 0.006ms returns 0x00
T3948 000:865.743 JLINK_WriteReg(R6, 0x00000000)
T3948 000:865.747 - 0.006ms returns 0x00
T3948 000:865.752 JLINK_WriteReg(R7, 0x00000000)
T3948 000:865.757 - 0.006ms returns 0x00
T3948 000:865.761 JLINK_WriteReg(R8, 0x00000000)
T3948 000:865.766 - 0.006ms returns 0x00
T3948 000:865.770 JLINK_WriteReg(R9, 0x20000160)
T3948 000:865.775 - 0.006ms returns 0x00
T3948 000:865.780 JLINK_WriteReg(R10, 0x00000000)
